T2020 000:073.129   SEGGER J-Link V7.52c Log File
T2020 000:073.225   DLL Compiled: Aug 10 2021 17:30:02
T2020 000:073.229   Logging started @ 2023-08-02 02:36
T2020 000:073.232 - 73.234ms
T2020 000:073.244 JLINK_SetWarnOutHandler(...)
T2020 000:073.249 - 0.006ms
T2020 000:073.253 JLINK_OpenEx(...)
T2020 000:084.731   Firmware: J-Link V9 compiled May  7 2021 16:26:12
T2020 000:085.222   Firmware: J-Link V9 compiled May  7 2021 16:26:12
T2020 000:085.335   Decompressing FW timestamp took 96 us
T2020 000:094.838   Hardware: V9.40
T2020 000:094.856   S/N: 69400082
T2020 000:094.861   OEM: SEGGER
T2020 000:094.866   Feature(s): RDI, GDB, FlashDL, FlashBP, JFlash
T2020 000:095.999   TELNET listener socket opened on port 19021
T2020 000:096.084   WEBSRV Starting webserver
T2020 000:096.187   WEBSRV Webserver running on local port 19080
T2020 000:099.579 - 26.339ms returns "O.K."
T2020 000:099.607 JLINK_SetErrorOutHandler(...)
T2020 000:099.611 - 0.005ms
T2020 000:099.622 JLINK_ExecCommand("ProjectFile = "D:\Project\Work\hc32f460_test\template_usart\MDK\JLinkSettings.ini"", ...). 
T2020 000:110.509   Ref file found at: D:\WorkSoft\MDK\core\ARM\Segger\JLinkDevices.ref
T2020 000:110.718   XML referenced by ref file: D:\WorkSoft\JLINK\JLinkDevices.xml
T2020 000:111.500   D:\WorkSoft\JLINK\JLinkDevices.xml evaluated successfully.
T2020 000:119.403   Device "CORTEX-M4" selected.
T2020 000:124.957 - 25.350ms returns 0x00
T2020 000:126.769 JLINK_ExecCommand("Device = HC32F460JEUA", ...). 
T2020 000:128.240   Device "CORTEX-M4" selected.
T2020 000:131.869 - 5.094ms returns 0x00
T2020 000:131.888 JLINK_ExecCommand("DisableConnectionTimeout", ...). 
T2020 000:131.895 - 0.003ms returns 0x01
T2020 000:131.901 JLINK_GetHardwareVersion()
T2020 000:131.909 - 0.010ms returns 94000
T2020 000:131.916 JLINK_GetDLLVersion()
T2020 000:131.920 - 0.005ms returns 75203
T2020 000:131.925 JLINK_GetOEMString(...)
T2020 000:131.930 JLINK_GetFirmwareString(...)
T2020 000:131.934 - 0.005ms
T2020 000:137.132 JLINK_GetDLLVersion()
T2020 000:137.154 - 0.023ms returns 75203
T2020 000:137.161 JLINK_GetCompileDateTime()
T2020 000:137.164 - 0.006ms
T2020 000:138.431 JLINK_GetFirmwareString(...)
T2020 000:138.445 - 0.015ms
T2020 000:139.618 JLINK_GetHardwareVersion()
T2020 000:139.628 - 0.012ms returns 94000
T2020 000:140.714 JLINK_GetSN()
T2020 000:140.724 - 0.012ms returns 69400082
T2020 000:141.852 JLINK_GetOEMString(...)
T2020 000:144.045 JLINK_TIF_Select(JLINKARM_TIF_SWD)
T2020 000:145.081 - 1.045ms returns 0x00
T2020 000:145.097 JLINK_HasError()
T2020 000:145.110 JLINK_SetSpeed(5000)
T2020 000:145.395 - 0.294ms
T2020 000:145.410 JLINK_GetId()
T2020 000:201.457   Found SW-DP with ID 0x2BA01477
T2020 000:261.172   DPIDR: 0x2BA01477
T2020 000:263.786   Scanning AP map to find all available APs
T2020 000:266.810   AP[1]: Stopped AP scan as end of AP map has been reached
T2020 000:268.544   AP[0]: AHB-AP (IDR: 0x24770011)
T2020 000:270.877   Iterating through AP map to find AHB-AP to use
T2020 000:274.648   AP[0]: Core found
T2020 000:276.372   AP[0]: AHB-AP ROM base: 0xE00FF000
T2020 000:278.683   CPUID register: 0x410FC241. Implementer code: 0x41 (ARM)
T2020 000:281.204   Found Cortex-M4 r0p1, Little endian.
T2020 000:382.905   -- Max. mem block: 0x00010E60
T2020 000:383.186   CPU_ReadMem(4 bytes @ 0xE000EDF0)
T2020 000:383.647   CPU_WriteMem(4 bytes @ 0xE000EDF0)
T2020 000:384.473   CPU_ReadMem(4 bytes @ 0xE0002000)
T2020 000:387.951   FPUnit: 6 code (BP) slots and 2 literal slots
T2020 000:387.978   CPU_ReadMem(4 bytes @ 0xE000EDFC)
T2020 000:388.348   CPU_WriteMem(4 bytes @ 0xE000EDFC)
T2020 000:388.744   CPU_ReadMem(4 bytes @ 0xE0001000)
T2020 000:389.131   CPU_WriteMem(4 bytes @ 0xE0001000)
T2020 000:389.583   CPU_ReadMem(4 bytes @ 0xE000ED88)
T2020 000:390.007   CPU_WriteMem(4 bytes @ 0xE000ED88)
T2020 000:390.396   CPU_ReadMem(4 bytes @ 0xE000ED88)
T2020 000:390.732   CPU_WriteMem(4 bytes @ 0xE000ED88)
T2020 000:393.435   CoreSight components:
T2020 000:395.175   ROMTbl[0] @ E00FF000
T2020 000:395.252   CPU_ReadMem(64 bytes @ 0xE00FF000)
T2020 000:396.054   CPU_ReadMem(32 bytes @ 0xE000EFE0)
T2020 000:399.286   ROMTbl[0][0]: E000E000, CID: B105E00D, PID: 000BB00C SCS-M7
T2020 000:399.310   CPU_ReadMem(32 bytes @ 0xE0001FE0)
T2020 000:401.859   ROMTbl[0][1]: E0001000, CID: B105E00D, PID: 003BB002 DWT
T2020 000:401.881   CPU_ReadMem(32 bytes @ 0xE0002FE0)
T2020 000:404.925   ROMTbl[0][2]: E0002000, CID: B105E00D, PID: 002BB003 FPB
T2020 000:404.972   CPU_ReadMem(32 bytes @ 0xE0000FE0)
T2020 000:407.740   ROMTbl[0][3]: E0000000, CID: B105E00D, PID: 003BB001 ITM
T2020 000:407.773   CPU_ReadMem(32 bytes @ 0xE0040FE0)
T2020 000:410.205   ROMTbl[0][4]: E0040000, CID: B105900D, PID: 000BB9A1 TPIU
T2020 000:410.531 - 265.128ms returns 0x2BA01477
T2020 000:410.549 JLINK_GetDLLVersion()
T2020 000:410.555 - 0.008ms returns 75203
T2020 000:410.564 JLINK_CORE_GetFound()
T2020 000:410.569 - 0.008ms returns 0xE0000FF
T2020 000:415.195 JLINK_GetDebugInfo(0x100 = JLINKARM_ROM_TABLE_ADDR_INDEX)
T2020 000:415.301   Value=0xE00FF000
T2020 000:415.309 - 0.117ms returns 0
T2020 000:417.354 JLINK_GetDebugInfo(0x100 = JLINKARM_ROM_TABLE_ADDR_INDEX)
T2020 000:417.373   Value=0xE00FF000
T2020 000:417.381 - 0.030ms returns 0
T2020 000:417.388 JLINK_GetDebugInfo(0x101 = JLINKARM_DEBUG_INFO_ETM_ADDR_INDEX)
T2020 000:417.394   Value=0x00000000
T2020 000:417.402 - 0.015ms returns 0
T2020 000:417.409 JLINK_ReadMem(0xE0041FF0, 0x10 Bytes, ...)
T2020 000:417.440   CPU_ReadMem(16 bytes @ 0xE0041FF0)
T2020 000:417.984   Data:  00 00 00 00 00 00 00 00 00 00 00 00 00 00 00 00
T2020 000:417.998 - 0.591ms returns 0
T2020 000:418.006 JLINK_GetDebugInfo(0x102 = JLINKARM_DEBUG_INFO_MTB_ADDR_INDEX)
T2020 000:418.013   Value=0x00000000
T2020 000:418.021 - 0.016ms returns 0
T2020 000:418.027 JLINK_GetDebugInfo(0x103 = JLINKARM_DEBUG_INFO_TPIU_ADDR_INDEX)
T2020 000:418.033   Value=0xE0040000
T2020 000:418.041 - 0.016ms returns 0
T2020 000:418.047 JLINK_GetDebugInfo(0x104 = JLINKARM_DEBUG_INFO_ITM_ADDR_INDEX)
T2020 000:418.053   Value=0xE0000000
T2020 000:418.060 - 0.015ms returns 0
T2020 000:418.067 JLINK_GetDebugInfo(0x105 = JLINKARM_DEBUG_INFO_DWT_ADDR_INDEX)
T2020 000:418.072   Value=0xE0001000
T2020 000:418.080 - 0.015ms returns 0
T2020 000:418.086 JLINK_GetDebugInfo(0x106 = JLINKARM_DEBUG_INFO_FPB_ADDR_INDEX)
T2020 000:418.092   Value=0xE0002000
T2020 000:418.099 - 0.015ms returns 0
T2020 000:418.106 JLINK_GetDebugInfo(0x107 = JLINKARM_DEBUG_INFO_NVIC_ADDR_INDEX)
T2020 000:418.112   Value=0xE000E000
T2020 000:418.119 - 0.015ms returns 0
T2020 000:418.125 JLINK_GetDebugInfo(0x10C = JLINKARM_DEBUG_INFO_DBG_ADDR_INDEX)
T2020 000:418.131   Value=0xE000EDF0
T2020 000:418.138 - 0.015ms returns 0
T2020 000:418.145 JLINK_ReadMemU32(0xE000EF40, 0x1 Items)
T2020 000:418.156   CPU_ReadMem(4 bytes @ 0xE000EF40)
T2020 000:418.690   Data:  21 00 11 10
T2020 000:418.703 - 0.561ms returns 1 (0x1)
T2020 000:418.712 JLINK_ReadMemU32(0xE000EF44, 0x1 Items)
T2020 000:418.723   CPU_ReadMem(4 bytes @ 0xE000EF44)
T2020 000:419.251   Data:  11 00 00 11
T2020 000:419.277 - 0.568ms returns 1 (0x1)
T2020 000:419.288 JLINK_ReadMemU32(0xE000ED00, 0x1 Items)
T2020 000:419.305   CPU_ReadMem(4 bytes @ 0xE000ED00)
T2020 000:419.655   Data:  41 C2 0F 41
T2020 000:419.681   Debug reg: CPUID
T2020 000:419.689 - 0.404ms returns 1 (0x1)
T2020 000:419.700 JLINK_HasError()
T2020 000:419.708 JLINK_SetResetType(JLINKARM_CM3_RESET_TYPE_NORMAL)
T2020 000:419.714 - 0.008ms returns JLINKARM_CM3_RESET_TYPE_NORMAL
T2020 000:419.721 JLINK_Reset()
T2020 000:419.745   CPU is running
T2020 000:419.756   CPU_WriteMem(4 bytes @ 0xE000EDF0)
T2020 000:420.148   CPU is running
T2020 000:420.159   CPU_WriteMem(4 bytes @ 0xE000EDFC)
T2020 000:422.677   Reset: Halt core after reset via DEMCR.VC_CORERESET.
T2020 000:425.016   Reset: Reset device via AIRCR.SYSRESETREQ.
T2020 000:425.037   CPU is running
T2020 000:425.048   CPU_WriteMem(4 bytes @ 0xE000ED0C)
T2020 000:478.101   CPU_ReadMem(4 bytes @ 0xE000EDF0)
T2020 000:478.665   CPU_ReadMem(4 bytes @ 0xE000EDF0)
T2020 000:479.183   CPU is running
T2020 000:479.201   CPU_WriteMem(4 bytes @ 0xE000EDF0)
T2020 000:479.579   CPU is running
T2020 000:479.596   CPU_WriteMem(4 bytes @ 0xE000EDFC)
T2020 000:485.326   CPU_ReadMem(4 bytes @ 0xE000EDF0)
T2020 000:488.552   CPU_WriteMem(4 bytes @ 0xE0002000)
T2020 000:488.988   CPU_ReadMem(4 bytes @ 0xE000EDFC)
T2020 000:489.363   CPU_ReadMem(4 bytes @ 0xE0001000)
T2020 000:489.765 - 70.075ms
T2020 000:493.096 JLINK_Halt()
T2020 000:493.125 - 0.036ms returns 0x00
T2020 000:493.143 JLINK_IsHalted()
T2020 000:493.158 - 0.021ms returns TRUE
T2020 000:493.175 JLINK_ReadMemU32(0xE000EDF0, 0x1 Items)
T2020 000:493.206   CPU_ReadMem(4 bytes @ 0xE000EDF0)
T2020 000:493.605   Data:  03 00 03 00
T2020 000:493.612   Debug reg: DHCSR
T2020 000:493.616 - 0.443ms returns 1 (0x1)
T2020 000:493.626 JLINK_WriteU32_64(0xE000EDF0, 0xA05F0003)
T2020 000:493.650   Debug reg: DHCSR
T2020 000:493.832   CPU_WriteMem(4 bytes @ 0xE000EDF0)
T2020 000:494.259 - 0.655ms returns 0 (0x00000000)
T2020 000:494.317 JLINK_WriteU32_64(0xE000EDFC, 0x01000000)
T2020 000:494.330   Debug reg: DEMCR
T2020 000:494.337   CPU_WriteMem(4 bytes @ 0xE000EDFC)
T2020 000:494.705 - 0.389ms returns 0 (0x00000000)
T2020 000:501.673 JLINK_GetHWStatus(...)
T2020 000:501.878 - 0.209ms returns 0
T2020 000:504.569 JLINK_GetNumBPUnits(Type = 0xFFFFFF00)
T2020 000:504.583 - 0.015ms returns 0x06
T2020 000:504.588 JLINK_GetNumBPUnits(Type = 0xF0)
T2020 000:504.591 - 0.005ms returns 0x2000
T2020 000:504.595 JLINK_GetNumWPUnits()
T2020 000:504.598 - 0.004ms returns 4
T2020 000:507.196 JLINK_GetSpeed()
T2020 000:507.206 - 0.012ms returns 4000
T2020 000:508.896 JLINK_ReadMemU32(0xE000E004, 0x1 Items)
T2020 000:508.915   CPU_ReadMem(4 bytes @ 0xE000E004)
T2020 000:509.345   Data:  04 00 00 00
T2020 000:509.352 - 0.457ms returns 1 (0x1)
T2020 000:509.357 JLINK_ReadMemU32(0xE000E004, 0x1 Items)
T2020 000:509.363   CPU_ReadMem(4 bytes @ 0xE000E004)
T2020 000:509.816   Data:  04 00 00 00
T2020 000:509.823 - 0.467ms returns 1 (0x1)
T2020 000:509.828 JLINK_WriteMem(0xE0001000, 0x1C Bytes, ...)
T2020 000:509.832   Data:  01 00 00 00 00 00 00 00 00 00 00 00 00 00 00 00 ...
T2020 000:509.842   CPU_WriteMem(28 bytes @ 0xE0001000)
T2020 000:510.350 - 0.524ms returns 0x1C
T2020 000:510.357 JLINK_ReadMem(0xE0001000, 0x1C Bytes, ...)
T2020 000:510.362   CPU_ReadMem(28 bytes @ 0xE0001000)
T2020 000:510.937   Data:  01 00 00 40 00 00 00 00 00 00 00 00 00 00 00 00 ...
T2020 000:510.997 - 0.651ms returns 0
T2020 000:511.014 JLINK_Halt()
T2020 000:511.017 - 0.005ms returns 0x00
T2020 000:511.021 JLINK_IsHalted()
T2020 000:511.025 - 0.005ms returns TRUE
T2020 000:513.703 JLINK_WriteMem(0x1FFF8000, 0x56C Bytes, ...)
T2020 000:513.712   Data:  00 BE 0A E0 0D 78 2D 06 68 40 08 24 40 00 00 D3 ...
T2020 000:513.885   CPU_WriteMem(1388 bytes @ 0x1FFF8000)
T2020 000:520.905 - 7.216ms returns 0x56C
T2020 000:523.970 JLINK_HasError()
T2020 000:523.988 JLINK_WriteReg(R0, 0x00000000)
T2020 000:524.006 - 0.020ms returns 0
T2020 000:524.010 JLINK_WriteReg(R1, 0x00B71B00)
T2020 000:524.014 - 0.005ms returns 0
T2020 000:524.018 JLINK_WriteReg(R2, 0x00000001)
T2020 000:524.021 - 0.004ms returns 0
T2020 000:524.025 JLINK_WriteReg(R3, 0x00000000)
T2020 000:524.029 - 0.005ms returns 0
T2020 000:524.033 JLINK_WriteReg(R4, 0x00000000)
T2020 000:524.036 - 0.005ms returns 0
T2020 000:524.040 JLINK_WriteReg(R5, 0x00000000)
T2020 000:524.043 - 0.005ms returns 0
T2020 000:524.047 JLINK_WriteReg(R6, 0x00000000)
T2020 000:524.050 - 0.004ms returns 0
T2020 000:524.054 JLINK_WriteReg(R7, 0x00000000)
T2020 000:524.057 - 0.005ms returns 0
T2020 000:524.061 JLINK_WriteReg(R8, 0x00000000)
T2020 000:524.067 - 0.006ms returns 0
T2020 000:524.070 JLINK_WriteReg(R9, 0x1FFF8568)
T2020 000:524.074 - 0.005ms returns 0
T2020 000:524.078 JLINK_WriteReg(R10, 0x00000000)
T2020 000:524.081 - 0.005ms returns 0
T2020 000:524.085 JLINK_WriteReg(R11, 0x00000000)
T2020 000:524.088 - 0.005ms returns 0
T2020 000:524.092 JLINK_WriteReg(R12, 0x00000000)
T2020 000:524.101 - 0.010ms returns 0
T2020 000:524.105 JLINK_WriteReg(R13 (SP), 0x1FFF9000)
T2020 000:524.109 - 0.005ms returns 0
T2020 000:524.113 JLINK_WriteReg(R14, 0x1FFF8001)
T2020 000:524.117 - 0.005ms returns 0
T2020 000:524.121 JLINK_WriteReg(R15 (PC), 0x1FFF8224)
T2020 000:524.125 - 0.006ms returns 0
T2020 000:524.129 JLINK_WriteReg(XPSR, 0x01000000)
T2020 000:524.156 - 0.028ms returns 0
T2020 000:524.160 JLINK_WriteReg(MSP, 0x1FFF9000)
T2020 000:524.163 - 0.004ms returns 0
T2020 000:524.167 JLINK_WriteReg(PSP, 0x1FFF9000)
T2020 000:524.170 - 0.004ms returns 0
T2020 000:524.174 JLINK_WriteReg(CFBP, 0x00000000)
T2020 000:524.177 - 0.004ms returns 0
T2020 000:524.182 JLINK_SetBPEx(Addr = 0x1FFF8000, Type = 0xFFFFFFF2)
T2020 000:524.188 - 0.007ms returns 0x00000001
T2020 000:524.192 JLINK_Go()
T2020 000:524.200   CPU_WriteMem(4 bytes @ 0xE0002000)
T2020 000:524.600   CPU_ReadMem(4 bytes @ 0xE0001000)
T2020 000:524.956   CPU_WriteMem(4 bytes @ 0xE0002008)
T2020 000:524.962   CPU_WriteMem(4 bytes @ 0xE000200C)
T2020 000:524.967   CPU_WriteMem(4 bytes @ 0xE0002010)
T2020 000:524.972   CPU_WriteMem(4 bytes @ 0xE0002014)
T2020 000:524.977   CPU_WriteMem(4 bytes @ 0xE0002018)
T2020 000:524.981   CPU_WriteMem(4 bytes @ 0xE000201C)
T2020 000:526.355   CPU_WriteMem(4 bytes @ 0xE0001004)
T2020 000:529.683 - 5.503ms
T2020 000:529.701 JLINK_IsHalted()
T2020 000:532.858 - 3.211ms returns TRUE
T2020 000:532.917 JLINK_ReadReg(R15 (PC))
T2020 000:532.922 - 0.007ms returns 0x1FFF8000
T2020 000:532.932 JLINK_ClrBPEx(BPHandle = 0x00000001)
T2020 000:532.936 - 0.005ms returns 0x00
T2020 000:532.940 JLINK_ReadReg(R0)
T2020 000:532.943 - 0.005ms returns 0x00000000
T2020 000:533.143 JLINK_HasError()
T2020 000:533.152 JLINK_WriteReg(R0, 0x00000000)
T2020 000:533.156 - 0.006ms returns 0
T2020 000:533.160 JLINK_WriteReg(R1, 0x00002000)
T2020 000:533.164 - 0.005ms returns 0
T2020 000:533.168 JLINK_WriteReg(R2, 0x000000FF)
T2020 000:533.171 - 0.005ms returns 0
T2020 000:533.175 JLINK_WriteReg(R3, 0x00000000)
T2020 000:533.178 - 0.004ms returns 0
T2020 000:533.182 JLINK_WriteReg(R4, 0x00000000)
T2020 000:533.186 - 0.005ms returns 0
T2020 000:533.189 JLINK_WriteReg(R5, 0x00000000)
T2020 000:533.193 - 0.004ms returns 0
T2020 000:533.196 JLINK_WriteReg(R6, 0x00000000)
T2020 000:533.200 - 0.005ms returns 0
T2020 000:533.204 JLINK_WriteReg(R7, 0x00000000)
T2020 000:533.207 - 0.004ms returns 0
T2020 000:533.211 JLINK_WriteReg(R8, 0x00000000)
T2020 000:533.214 - 0.004ms returns 0
T2020 000:533.218 JLINK_WriteReg(R9, 0x1FFF8568)
T2020 000:533.221 - 0.004ms returns 0
T2020 000:533.225 JLINK_WriteReg(R10, 0x00000000)
T2020 000:533.228 - 0.005ms returns 0
T2020 000:533.232 JLINK_WriteReg(R11, 0x00000000)
T2020 000:533.235 - 0.004ms returns 0
T2020 000:533.239 JLINK_WriteReg(R12, 0x00000000)
T2020 000:533.242 - 0.004ms returns 0
T2020 000:533.246 JLINK_WriteReg(R13 (SP), 0x1FFF9000)
T2020 000:533.250 - 0.005ms returns 0
T2020 000:533.254 JLINK_WriteReg(R14, 0x1FFF8001)
T2020 000:533.257 - 0.005ms returns 0
T2020 000:533.261 JLINK_WriteReg(R15 (PC), 0x1FFF8020)
T2020 000:533.265 - 0.005ms returns 0
T2020 000:533.268 JLINK_WriteReg(XPSR, 0x01000000)
T2020 000:533.272 - 0.005ms returns 0
T2020 000:533.276 JLINK_WriteReg(MSP, 0x1FFF9000)
T2020 000:533.279 - 0.005ms returns 0
T2020 000:533.283 JLINK_WriteReg(PSP, 0x1FFF9000)
T2020 000:533.286 - 0.005ms returns 0
T2020 000:533.290 JLINK_WriteReg(CFBP, 0x00000000)
T2020 000:533.293 - 0.004ms returns 0
T2020 000:533.297 JLINK_SetBPEx(Addr = 0x1FFF8000, Type = 0xFFFFFFF2)
T2020 000:533.302 - 0.006ms returns 0x00000002
T2020 000:533.305 JLINK_Go()
T2020 000:533.313   CPU_WriteMem(4 bytes @ 0xE0002000)
T2020 000:533.686   CPU_ReadMem(4 bytes @ 0xE0001000)
T2020 000:536.780 - 3.483ms
T2020 000:536.795 JLINK_IsHalted()
T2020 000:539.728 - 2.969ms returns TRUE
T2020 000:539.801 JLINK_ReadReg(R15 (PC))
T2020 000:539.827 - 0.028ms returns 0x1FFF8000
T2020 000:539.832 JLINK_ClrBPEx(BPHandle = 0x00000002)
T2020 000:539.878 - 0.049ms returns 0x00
T2020 000:539.884 JLINK_ReadReg(R0)
T2020 000:539.888 - 0.005ms returns 0x00000001
T2020 000:539.892 JLINK_HasError()
T2020 000:539.896 JLINK_WriteReg(R0, 0x00000000)
T2020 000:539.900 - 0.005ms returns 0
T2020 000:539.904 JLINK_WriteReg(R1, 0x00002000)
T2020 000:539.907 - 0.005ms returns 0
T2020 000:539.911 JLINK_WriteReg(R2, 0x000000FF)
T2020 000:539.914 - 0.005ms returns 0
T2020 000:539.918 JLINK_WriteReg(R3, 0x00000000)
T2020 000:539.922 - 0.005ms returns 0
T2020 000:539.925 JLINK_WriteReg(R4, 0x00000000)
T2020 000:539.929 - 0.004ms returns 0
T2020 000:539.933 JLINK_WriteReg(R5, 0x00000000)
T2020 000:539.936 - 0.004ms returns 0
T2020 000:539.940 JLINK_WriteReg(R6, 0x00000000)
T2020 000:539.943 - 0.004ms returns 0
T2020 000:539.947 JLINK_WriteReg(R7, 0x00000000)
T2020 000:539.950 - 0.004ms returns 0
T2020 000:539.954 JLINK_WriteReg(R8, 0x00000000)
T2020 000:539.957 - 0.005ms returns 0
T2020 000:539.961 JLINK_WriteReg(R9, 0x1FFF8568)
T2020 000:539.964 - 0.004ms returns 0
T2020 000:539.968 JLINK_WriteReg(R10, 0x00000000)
T2020 000:539.971 - 0.005ms returns 0
T2020 000:539.975 JLINK_WriteReg(R11, 0x00000000)
T2020 000:539.979 - 0.005ms returns 0
T2020 000:539.982 JLINK_WriteReg(R12, 0x00000000)
T2020 000:539.986 - 0.004ms returns 0
T2020 000:539.989 JLINK_WriteReg(R13 (SP), 0x1FFF9000)
T2020 000:539.993 - 0.005ms returns 0
T2020 000:539.997 JLINK_WriteReg(R14, 0x1FFF8001)
T2020 000:540.000 - 0.005ms returns 0
T2020 000:540.004 JLINK_WriteReg(R15 (PC), 0x1FFF8194)
T2020 000:540.007 - 0.005ms returns 0
T2020 000:540.011 JLINK_WriteReg(XPSR, 0x01000000)
T2020 000:540.015 - 0.005ms returns 0
T2020 000:540.018 JLINK_WriteReg(MSP, 0x1FFF9000)
T2020 000:540.022 - 0.004ms returns 0
T2020 000:540.026 JLINK_WriteReg(PSP, 0x1FFF9000)
T2020 000:540.029 - 0.005ms returns 0
T2020 000:540.033 JLINK_WriteReg(CFBP, 0x00000000)
T2020 000:540.036 - 0.005ms returns 0
T2020 000:540.040 JLINK_SetBPEx(Addr = 0x1FFF8000, Type = 0xFFFFFFF2)
T2020 000:540.044 - 0.005ms returns 0x00000003
T2020 000:540.048 JLINK_Go()
T2020 000:540.054   CPU_WriteMem(4 bytes @ 0xE0002000)
T2020 000:540.550   CPU_ReadMem(4 bytes @ 0xE0001000)
T2020 000:543.759 - 3.719ms
T2020 000:543.772 JLINK_IsHalted()
T2020 000:544.106 - 0.336ms returns FALSE
T2020 000:544.112 JLINK_HasError()
T2020 000:569.030 JLINK_IsHalted()
T2020 000:571.878 - 2.859ms returns TRUE
T2020 000:571.894 JLINK_ReadReg(R15 (PC))
T2020 000:571.901 - 0.008ms returns 0x1FFF8000
T2020 000:571.905 JLINK_ClrBPEx(BPHandle = 0x00000003)
T2020 000:571.910 - 0.006ms returns 0x00
T2020 000:571.914 JLINK_ReadReg(R0)
T2020 000:571.918 - 0.005ms returns 0x00000000
T2020 000:573.199 JLINK_HasError()
T2020 000:573.214 JLINK_WriteReg(R0, 0x00002000)
T2020 000:573.220 - 0.008ms returns 0
T2020 000:573.225 JLINK_WriteReg(R1, 0x00002000)
T2020 000:573.229 - 0.005ms returns 0
T2020 000:573.233 JLINK_WriteReg(R2, 0x000000FF)
T2020 000:573.239 - 0.008ms returns 0
T2020 000:573.243 JLINK_WriteReg(R3, 0x00000000)
T2020 000:573.246 - 0.005ms returns 0
T2020 000:573.250 JLINK_WriteReg(R4, 0x00000000)
T2020 000:573.253 - 0.005ms returns 0
T2020 000:573.257 JLINK_WriteReg(R5, 0x00000000)
T2020 000:573.260 - 0.004ms returns 0
T2020 000:573.264 JLINK_WriteReg(R6, 0x00000000)
T2020 000:573.268 - 0.004ms returns 0
T2020 000:573.271 JLINK_WriteReg(R7, 0x00000000)
T2020 000:573.275 - 0.004ms returns 0
T2020 000:573.278 JLINK_WriteReg(R8, 0x00000000)
T2020 000:573.282 - 0.005ms returns 0
T2020 000:573.285 JLINK_WriteReg(R9, 0x1FFF8568)
T2020 000:573.289 - 0.005ms returns 0
T2020 000:573.292 JLINK_WriteReg(R10, 0x00000000)
T2020 000:573.296 - 0.005ms returns 0
T2020 000:573.300 JLINK_WriteReg(R11, 0x00000000)
T2020 000:573.303 - 0.005ms returns 0
T2020 000:573.307 JLINK_WriteReg(R12, 0x00000000)
T2020 000:573.310 - 0.005ms returns 0
T2020 000:573.314 JLINK_WriteReg(R13 (SP), 0x1FFF9000)
T2020 000:573.318 - 0.005ms returns 0
T2020 000:573.322 JLINK_WriteReg(R14, 0x1FFF8001)
T2020 000:573.325 - 0.008ms returns 0
T2020 000:573.334 JLINK_WriteReg(R15 (PC), 0x1FFF8020)
T2020 000:573.338 - 0.005ms returns 0
T2020 000:573.342 JLINK_WriteReg(XPSR, 0x01000000)
T2020 000:573.345 - 0.005ms returns 0
T2020 000:573.349 JLINK_WriteReg(MSP, 0x1FFF9000)
T2020 000:573.352 - 0.004ms returns 0
T2020 000:573.356 JLINK_WriteReg(PSP, 0x1FFF9000)
T2020 000:573.359 - 0.005ms returns 0
T2020 000:573.363 JLINK_WriteReg(CFBP, 0x00000000)
T2020 000:573.367 - 0.005ms returns 0
T2020 000:573.370 JLINK_SetBPEx(Addr = 0x1FFF8000, Type = 0xFFFFFFF2)
T2020 000:573.375 - 0.006ms returns 0x00000004
T2020 000:573.379 JLINK_Go()
T2020 000:573.388   CPU_WriteMem(4 bytes @ 0xE0002000)
T2020 000:573.862   CPU_ReadMem(4 bytes @ 0xE0001000)
T2020 000:577.057 - 3.685ms
T2020 000:577.069 JLINK_IsHalted()
T2020 000:579.866 - 2.818ms returns TRUE
T2020 000:579.911 JLINK_ReadReg(R15 (PC))
T2020 000:579.936 - 0.034ms returns 0x1FFF8000
T2020 000:579.963 JLINK_ClrBPEx(BPHandle = 0x00000004)
T2020 000:579.983 - 0.029ms returns 0x00
T2020 000:580.004 JLINK_ReadReg(R0)
T2020 000:580.022 - 0.027ms returns 0x00000001
T2020 000:580.046 JLINK_HasError()
T2020 000:583.286 JLINK_WriteReg(R0, 0x00002000)
T2020 000:583.334 - 0.057ms returns 0
T2020 000:583.356 JLINK_WriteReg(R1, 0x00002000)
T2020 000:583.373 - 0.024ms returns 0
T2020 000:583.391 JLINK_WriteReg(R2, 0x000000FF)
T2020 000:583.407 - 0.024ms returns 0
T2020 000:583.426 JLINK_WriteReg(R3, 0x00000000)
T2020 000:583.442 - 0.024ms returns 0
T2020 000:583.460 JLINK_WriteReg(R4, 0x00000000)
T2020 000:583.476 - 0.023ms returns 0
T2020 000:583.494 JLINK_WriteReg(R5, 0x00000000)
T2020 000:583.510 - 0.024ms returns 0
T2020 000:583.528 JLINK_WriteReg(R6, 0x00000000)
T2020 000:583.544 - 0.023ms returns 0
T2020 000:583.562 JLINK_WriteReg(R7, 0x00000000)
T2020 000:583.577 - 0.023ms returns 0
T2020 000:583.595 JLINK_WriteReg(R8, 0x00000000)
T2020 000:583.611 - 0.023ms returns 0
T2020 000:583.629 JLINK_WriteReg(R9, 0x1FFF8568)
T2020 000:583.644 - 0.023ms returns 0
T2020 000:583.662 JLINK_WriteReg(R10, 0x00000000)
T2020 000:583.678 - 0.023ms returns 0
T2020 000:583.696 JLINK_WriteReg(R11, 0x00000000)
T2020 000:583.711 - 0.023ms returns 0
T2020 000:583.729 JLINK_WriteReg(R12, 0x00000000)
T2020 000:583.745 - 0.023ms returns 0
T2020 000:583.763 JLINK_WriteReg(R13 (SP), 0x1FFF9000)
T2020 000:583.781 - 0.025ms returns 0
T2020 000:583.799 JLINK_WriteReg(R14, 0x1FFF8001)
T2020 000:583.815 - 0.024ms returns 0
T2020 000:583.833 JLINK_WriteReg(R15 (PC), 0x1FFF8194)
T2020 000:583.848 - 0.021ms returns 0
T2020 000:583.864 JLINK_WriteReg(XPSR, 0x01000000)
T2020 000:583.878 - 0.020ms returns 0
T2020 000:583.893 JLINK_WriteReg(MSP, 0x1FFF9000)
T2020 000:583.907 - 0.020ms returns 0
T2020 000:583.922 JLINK_WriteReg(PSP, 0x1FFF9000)
T2020 000:583.936 - 0.020ms returns 0
T2020 000:583.952 JLINK_WriteReg(CFBP, 0x00000000)
T2020 000:584.137 - 0.187ms returns 0
T2020 000:584.144 JLINK_SetBPEx(Addr = 0x1FFF8000, Type = 0xFFFFFFF2)
T2020 000:584.150 - 0.007ms returns 0x00000005
T2020 000:584.154 JLINK_Go()
T2020 000:584.163   CPU_WriteMem(4 bytes @ 0xE0002000)
T2020 000:584.597   CPU_ReadMem(4 bytes @ 0xE0001000)
T2020 000:587.759 - 3.616ms
T2020 000:587.776 JLINK_IsHalted()
T2020 000:588.159 - 0.403ms returns FALSE
T2020 000:588.193 JLINK_HasError()
T2020 000:592.094 JLINK_IsHalted()
T2020 000:592.572 - 0.486ms returns FALSE
T2020 000:592.585 JLINK_HasError()
T2020 000:593.956 JLINK_IsHalted()
T2020 000:594.484 - 0.531ms returns FALSE
T2020 000:594.490 JLINK_HasError()
T2020 000:595.936 JLINK_IsHalted()
T2020 000:596.346 - 0.412ms returns FALSE
T2020 000:596.352 JLINK_HasError()
T2020 000:597.933 JLINK_IsHalted()
T2020 000:598.441 - 0.511ms returns FALSE
T2020 000:598.447 JLINK_HasError()
T2020 000:600.142 JLINK_IsHalted()
T2020 000:600.590 - 0.451ms returns FALSE
T2020 000:600.597 JLINK_HasError()
T2020 000:601.929 JLINK_IsHalted()
T2020 000:602.615 - 0.710ms returns FALSE
T2020 000:602.715 JLINK_HasError()
T2020 000:604.201 JLINK_IsHalted()
T2020 000:604.805 - 0.621ms returns FALSE
T2020 000:604.830 JLINK_HasError()
T2020 000:606.131 JLINK_IsHalted()
T2020 000:608.956 - 2.863ms returns TRUE
T2020 000:609.040 JLINK_ReadReg(R15 (PC))
T2020 000:609.046 - 0.007ms returns 0x1FFF8000
T2020 000:609.050 JLINK_ClrBPEx(BPHandle = 0x00000005)
T2020 000:609.054 - 0.005ms returns 0x00
T2020 000:609.058 JLINK_ReadReg(R0)
T2020 000:609.062 - 0.005ms returns 0x00000000
T2020 000:612.332 JLINK_HasError()
T2020 000:612.382 JLINK_WriteReg(R0, 0x00000001)
T2020 000:612.410 - 0.038ms returns 0
T2020 000:612.431 JLINK_WriteReg(R1, 0x00002000)
T2020 000:612.448 - 0.024ms returns 0
T2020 000:612.467 JLINK_WriteReg(R2, 0x000000FF)
T2020 000:612.482 - 0.023ms returns 0
T2020 000:612.501 JLINK_WriteReg(R3, 0x00000000)
T2020 000:612.516 - 0.023ms returns 0
T2020 000:612.535 JLINK_WriteReg(R4, 0x00000000)
T2020 000:612.550 - 0.023ms returns 0
T2020 000:612.568 JLINK_WriteReg(R5, 0x00000000)
T2020 000:612.583 - 0.023ms returns 0
T2020 000:612.601 JLINK_WriteReg(R6, 0x00000000)
T2020 000:612.617 - 0.023ms returns 0
T2020 000:612.635 JLINK_WriteReg(R7, 0x00000000)
T2020 000:612.650 - 0.023ms returns 0
T2020 000:612.668 JLINK_WriteReg(R8, 0x00000000)
T2020 000:612.684 - 0.023ms returns 0
T2020 000:612.702 JLINK_WriteReg(R9, 0x1FFF8568)
T2020 000:612.717 - 0.023ms returns 0
T2020 000:612.735 JLINK_WriteReg(R10, 0x00000000)
T2020 000:612.751 - 0.023ms returns 0
T2020 000:612.769 JLINK_WriteReg(R11, 0x00000000)
T2020 000:612.785 - 0.023ms returns 0
T2020 000:612.803 JLINK_WriteReg(R12, 0x00000000)
T2020 000:612.819 - 0.023ms returns 0
T2020 000:612.836 JLINK_WriteReg(R13 (SP), 0x1FFF9000)
T2020 000:612.853 - 0.024ms returns 0
T2020 000:612.871 JLINK_WriteReg(R14, 0x1FFF8001)
T2020 000:612.887 - 0.023ms returns 0
T2020 000:612.905 JLINK_WriteReg(R15 (PC), 0x1FFF8384)
T2020 000:612.921 - 0.023ms returns 0
T2020 000:612.937 JLINK_WriteReg(XPSR, 0x01000000)
T2020 000:612.975 - 0.039ms returns 0
T2020 000:612.981 JLINK_WriteReg(MSP, 0x1FFF9000)
T2020 000:612.985 - 0.005ms returns 0
T2020 000:612.989 JLINK_WriteReg(PSP, 0x1FFF9000)
T2020 000:612.993 - 0.005ms returns 0
T2020 000:612.997 JLINK_WriteReg(CFBP, 0x00000000)
T2020 000:613.000 - 0.005ms returns 0
T2020 000:613.004 JLINK_SetBPEx(Addr = 0x1FFF8000, Type = 0xFFFFFFF2)
T2020 000:613.010 - 0.007ms returns 0x00000006
T2020 000:613.014 JLINK_Go()
T2020 000:613.024   CPU_WriteMem(4 bytes @ 0xE0002000)
T2020 000:613.436   CPU_ReadMem(4 bytes @ 0xE0001000)
T2020 000:616.748 - 3.779ms
T2020 000:616.831 JLINK_IsHalted()
T2020 000:619.737 - 2.916ms returns TRUE
T2020 000:619.751 JLINK_ReadReg(R15 (PC))
T2020 000:619.757 - 0.007ms returns 0x1FFF8000
T2020 000:619.762 JLINK_ClrBPEx(BPHandle = 0x00000006)
T2020 000:619.766 - 0.005ms returns 0x00
T2020 000:619.770 JLINK_ReadReg(R0)
T2020 000:619.774 - 0.005ms returns 0x00000000
T2020 000:674.960 JLINK_WriteMem(0x1FFF8000, 0x56C Bytes, ...)
T2020 000:674.973   Data:  00 BE 0A E0 0D 78 2D 06 68 40 08 24 40 00 00 D3 ...
T2020 000:674.990   CPU_WriteMem(1388 bytes @ 0x1FFF8000)
T2020 000:682.205 - 7.271ms returns 0x56C
T2020 000:682.304 JLINK_HasError()
T2020 000:682.325 JLINK_WriteReg(R0, 0x00000000)
T2020 000:682.347 - 0.028ms returns 0
T2020 000:682.363 JLINK_WriteReg(R1, 0x00B71B00)
T2020 000:682.377 - 0.020ms returns 0
T2020 000:682.392 JLINK_WriteReg(R2, 0x00000002)
T2020 000:682.405 - 0.019ms returns 0
T2020 000:682.420 JLINK_WriteReg(R3, 0x00000000)
T2020 000:682.433 - 0.019ms returns 0
T2020 000:682.458 JLINK_WriteReg(R4, 0x00000000)
T2020 000:682.479 - 0.022ms returns 0
T2020 000:682.485 JLINK_WriteReg(R5, 0x00000000)
T2020 000:682.489 - 0.005ms returns 0
T2020 000:682.493 JLINK_WriteReg(R6, 0x00000000)
T2020 000:682.497 - 0.005ms returns 0
T2020 000:682.500 JLINK_WriteReg(R7, 0x00000000)
T2020 000:682.504 - 0.005ms returns 0
T2020 000:682.508 JLINK_WriteReg(R8, 0x00000000)
T2020 000:682.511 - 0.005ms returns 0
T2020 000:682.515 JLINK_WriteReg(R9, 0x1FFF8568)
T2020 000:682.519 - 0.005ms returns 0
T2020 000:682.522 JLINK_WriteReg(R10, 0x00000000)
T2020 000:682.529 - 0.009ms returns 0
T2020 000:682.534 JLINK_WriteReg(R11, 0x00000000)
T2020 000:682.538 - 0.005ms returns 0
T2020 000:682.542 JLINK_WriteReg(R12, 0x00000000)
T2020 000:682.545 - 0.005ms returns 0
T2020 000:682.549 JLINK_WriteReg(R13 (SP), 0x1FFF9000)
T2020 000:682.553 - 0.005ms returns 0
T2020 000:682.557 JLINK_WriteReg(R14, 0x1FFF8001)
T2020 000:682.560 - 0.005ms returns 0
T2020 000:682.564 JLINK_WriteReg(R15 (PC), 0x1FFF8224)
T2020 000:682.568 - 0.005ms returns 0
T2020 000:682.571 JLINK_WriteReg(XPSR, 0x01000000)
T2020 000:682.575 - 0.005ms returns 0
T2020 000:682.579 JLINK_WriteReg(MSP, 0x1FFF9000)
T2020 000:682.582 - 0.004ms returns 0
T2020 000:682.586 JLINK_WriteReg(PSP, 0x1FFF9000)
T2020 000:682.589 - 0.005ms returns 0
T2020 000:682.593 JLINK_WriteReg(CFBP, 0x00000000)
T2020 000:682.596 - 0.005ms returns 0
T2020 000:682.601 JLINK_SetBPEx(Addr = 0x1FFF8000, Type = 0xFFFFFFF2)
T2020 000:682.608 - 0.008ms returns 0x00000007
T2020 000:682.612 JLINK_Go()
T2020 000:682.621   CPU_WriteMem(4 bytes @ 0xE0002000)
T2020 000:683.029   CPU_ReadMem(4 bytes @ 0xE0001000)
T2020 000:686.360 - 3.774ms
T2020 000:686.400 JLINK_IsHalted()
T2020 000:689.269 - 2.889ms returns TRUE
T2020 000:689.303 JLINK_ReadReg(R15 (PC))
T2020 000:689.325 - 0.028ms returns 0x1FFF8000
T2020 000:689.342 JLINK_ClrBPEx(BPHandle = 0x00000007)
T2020 000:689.357 - 0.022ms returns 0x00
T2020 000:689.374 JLINK_ReadReg(R0)
T2020 000:689.388 - 0.021ms returns 0x00000000
T2020 000:689.906 JLINK_WriteMem(0x1FFF856C, 0x200 Bytes, ...)
T2020 000:689.931   Data:  60 87 FF 1F 95 02 00 00 89 18 00 00 C7 02 00 00 ...
T2020 000:689.967   CPU_WriteMem(512 bytes @ 0x1FFF856C)
T2020 000:693.033 - 3.143ms returns 0x200
T2020 000:693.064 JLINK_HasError()
T2020 000:693.080 JLINK_WriteReg(R0, 0x00000000)
T2020 000:693.099 - 0.025ms returns 0
T2020 000:693.113 JLINK_WriteReg(R1, 0x00000200)
T2020 000:693.126 - 0.018ms returns 0
T2020 000:693.140 JLINK_WriteReg(R2, 0x1FFF856C)
T2020 000:693.152 - 0.018ms returns 0
T2020 000:693.166 JLINK_WriteReg(R3, 0x00000000)
T2020 000:693.178 - 0.018ms returns 0
T2020 000:693.191 JLINK_WriteReg(R4, 0x00000000)
T2020 000:693.203 - 0.017ms returns 0
T2020 000:693.217 JLINK_WriteReg(R5, 0x00000000)
T2020 000:693.229 - 0.018ms returns 0
T2020 000:693.243 JLINK_WriteReg(R6, 0x00000000)
T2020 000:693.254 - 0.017ms returns 0
T2020 000:693.269 JLINK_WriteReg(R7, 0x00000000)
T2020 000:693.281 - 0.019ms returns 0
T2020 000:693.296 JLINK_WriteReg(R8, 0x00000000)
T2020 000:693.309 - 0.018ms returns 0
T2020 000:693.323 JLINK_WriteReg(R9, 0x1FFF8568)
T2020 000:693.336 - 0.018ms returns 0
T2020 000:693.350 JLINK_WriteReg(R10, 0x00000000)
T2020 000:693.363 - 0.019ms returns 0
T2020 000:693.378 JLINK_WriteReg(R11, 0x00000000)
T2020 000:693.390 - 0.018ms returns 0
T2020 000:693.405 JLINK_WriteReg(R12, 0x00000000)
T2020 000:693.417 - 0.018ms returns 0
T2020 000:693.432 JLINK_WriteReg(R13 (SP), 0x1FFF9000)
T2020 000:693.445 - 0.020ms returns 0
T2020 000:693.460 JLINK_WriteReg(R14, 0x1FFF8001)
T2020 000:693.473 - 0.019ms returns 0
T2020 000:693.488 JLINK_WriteReg(R15 (PC), 0x1FFF8288)
T2020 000:693.501 - 0.019ms returns 0
T2020 000:693.515 JLINK_WriteReg(XPSR, 0x01000000)
T2020 000:693.528 - 0.019ms returns 0
T2020 000:693.543 JLINK_WriteReg(MSP, 0x1FFF9000)
T2020 000:693.555 - 0.018ms returns 0
T2020 000:693.570 JLINK_WriteReg(PSP, 0x1FFF9000)
T2020 000:693.583 - 0.019ms returns 0
T2020 000:693.597 JLINK_WriteReg(CFBP, 0x00000000)
T2020 000:693.610 - 0.018ms returns 0
T2020 000:693.625 JLINK_SetBPEx(Addr = 0x1FFF8000, Type = 0xFFFFFFF2)
T2020 000:693.640 - 0.021ms returns 0x00000008
T2020 000:693.655 JLINK_Go()
T2020 000:693.673   CPU_WriteMem(4 bytes @ 0xE0002000)
T2020 000:694.094   CPU_ReadMem(4 bytes @ 0xE0001000)
T2020 000:697.342 - 3.703ms
T2020 000:697.372 JLINK_IsHalted()
T2020 000:697.750 - 0.394ms returns FALSE
T2020 000:697.783 JLINK_HasError()
T2020 000:703.988 JLINK_IsHalted()
T2020 000:704.411 - 0.429ms returns FALSE
T2020 000:704.480 JLINK_HasError()
T2020 000:705.969 JLINK_IsHalted()
T2020 000:708.743 - 2.785ms returns TRUE
T2020 000:708.761 JLINK_ReadReg(R15 (PC))
T2020 000:708.771 - 0.013ms returns 0x1FFF8000
T2020 000:708.779 JLINK_ClrBPEx(BPHandle = 0x00000008)
T2020 000:708.786 - 0.010ms returns 0x00
T2020 000:708.794 JLINK_ReadReg(R0)
T2020 000:708.801 - 0.010ms returns 0x00000000
T2020 000:709.231 JLINK_WriteMem(0x1FFF856C, 0x200 Bytes, ...)
T2020 000:709.243   Data:  01 17 00 00 19 17 00 00 31 17 00 00 49 17 00 00 ...
T2020 000:709.260   CPU_WriteMem(512 bytes @ 0x1FFF856C)
T2020 000:712.223 - 3.002ms returns 0x200
T2020 000:712.241 JLINK_HasError()
T2020 000:712.250 JLINK_WriteReg(R0, 0x00000200)
T2020 000:712.261 - 0.014ms returns 0
T2020 000:712.268 JLINK_WriteReg(R1, 0x00000200)
T2020 000:712.275 - 0.009ms returns 0
T2020 000:712.282 JLINK_WriteReg(R2, 0x1FFF856C)
T2020 000:712.289 - 0.022ms returns 0
T2020 000:712.312 JLINK_WriteReg(R3, 0x00000000)
T2020 000:712.320 - 0.010ms returns 0
T2020 000:712.324 JLINK_WriteReg(R4, 0x00000000)
T2020 000:712.328 - 0.005ms returns 0
T2020 000:712.332 JLINK_WriteReg(R5, 0x00000000)
T2020 000:712.335 - 0.005ms returns 0
T2020 000:712.339 JLINK_WriteReg(R6, 0x00000000)
T2020 000:712.343 - 0.005ms returns 0
T2020 000:712.346 JLINK_WriteReg(R7, 0x00000000)
T2020 000:712.350 - 0.004ms returns 0
T2020 000:712.353 JLINK_WriteReg(R8, 0x00000000)
T2020 000:712.357 - 0.005ms returns 0
T2020 000:712.361 JLINK_WriteReg(R9, 0x1FFF8568)
T2020 000:712.364 - 0.005ms returns 0
T2020 000:712.368 JLINK_WriteReg(R10, 0x00000000)
T2020 000:712.371 - 0.005ms returns 0
T2020 000:712.375 JLINK_WriteReg(R11, 0x00000000)
T2020 000:712.389 - 0.015ms returns 0
T2020 000:712.392 JLINK_WriteReg(R12, 0x00000000)
T2020 000:712.396 - 0.004ms returns 0
T2020 000:712.399 JLINK_WriteReg(R13 (SP), 0x1FFF9000)
T2020 000:712.404 - 0.005ms returns 0
T2020 000:712.407 JLINK_WriteReg(R14, 0x1FFF8001)
T2020 000:712.411 - 0.005ms returns 0
T2020 000:712.415 JLINK_WriteReg(R15 (PC), 0x1FFF8288)
T2020 000:712.418 - 0.005ms returns 0
T2020 000:712.422 JLINK_WriteReg(XPSR, 0x01000000)
T2020 000:712.425 - 0.005ms returns 0
T2020 000:712.429 JLINK_WriteReg(MSP, 0x1FFF9000)
T2020 000:712.432 - 0.004ms returns 0
T2020 000:712.436 JLINK_WriteReg(PSP, 0x1FFF9000)
T2020 000:712.440 - 0.005ms returns 0
T2020 000:712.443 JLINK_WriteReg(CFBP, 0x00000000)
T2020 000:712.447 - 0.005ms returns 0
T2020 000:712.451 JLINK_SetBPEx(Addr = 0x1FFF8000, Type = 0xFFFFFFF2)
T2020 000:712.457 - 0.007ms returns 0x00000009
T2020 000:712.461 JLINK_Go()
T2020 000:712.474   CPU_WriteMem(4 bytes @ 0xE0002000)
T2020 000:712.841   CPU_ReadMem(4 bytes @ 0xE0001000)
T2020 000:715.876 - 3.422ms
T2020 000:715.890 JLINK_IsHalted()
T2020 000:716.346 - 0.462ms returns FALSE
T2020 000:716.358 JLINK_HasError()
T2020 000:717.956 JLINK_IsHalted()
T2020 000:718.445 - 0.498ms returns FALSE
T2020 000:718.462 JLINK_HasError()
T2020 000:719.927 JLINK_IsHalted()
T2020 000:720.352 - 0.430ms returns FALSE
T2020 000:720.376 JLINK_HasError()
T2020 000:722.984 JLINK_IsHalted()
T2020 000:723.351 - 0.379ms returns FALSE
T2020 000:723.373 JLINK_HasError()
T2020 000:724.910 JLINK_IsHalted()
T2020 000:728.005 - 3.113ms returns TRUE
T2020 000:728.040 JLINK_ReadReg(R15 (PC))
T2020 000:728.058 - 0.024ms returns 0x1FFF8000
T2020 000:728.074 JLINK_ClrBPEx(BPHandle = 0x00000009)
T2020 000:728.088 - 0.019ms returns 0x00
T2020 000:728.104 JLINK_ReadReg(R0)
T2020 000:728.117 - 0.019ms returns 0x00000000
T2020 000:731.329 JLINK_WriteMem(0x1FFF856C, 0x200 Bytes, ...)
T2020 000:731.350   Data:  FF FF FF FF FF FE FF FF FF FF FF FF FF FF FF FF ...
T2020 000:731.374   CPU_WriteMem(512 bytes @ 0x1FFF856C)
T2020 000:734.406 - 3.087ms returns 0x200
T2020 000:734.424 JLINK_HasError()
T2020 000:734.434 JLINK_WriteReg(R0, 0x00000400)
T2020 000:734.445 - 0.014ms returns 0
T2020 000:734.452 JLINK_WriteReg(R1, 0x00000200)
T2020 000:734.459 - 0.010ms returns 0
T2020 000:734.467 JLINK_WriteReg(R2, 0x1FFF856C)
T2020 000:734.474 - 0.014ms returns 0
T2020 000:734.490 JLINK_WriteReg(R3, 0x00000000)
T2020 000:734.497 - 0.010ms returns 0
T2020 000:734.504 JLINK_WriteReg(R4, 0x00000000)
T2020 000:734.511 - 0.010ms returns 0
T2020 000:734.519 JLINK_WriteReg(R5, 0x00000000)
T2020 000:734.526 - 0.010ms returns 0
T2020 000:734.534 JLINK_WriteReg(R6, 0x00000000)
T2020 000:734.541 - 0.010ms returns 0
T2020 000:734.548 JLINK_WriteReg(R7, 0x00000000)
T2020 000:734.555 - 0.010ms returns 0
T2020 000:734.571 JLINK_WriteReg(R8, 0x00000000)
T2020 000:734.588 - 0.019ms returns 0
T2020 000:734.594 JLINK_WriteReg(R9, 0x1FFF8568)
T2020 000:734.598 - 0.005ms returns 0
T2020 000:734.602 JLINK_WriteReg(R10, 0x00000000)
T2020 000:734.606 - 0.016ms returns 0
T2020 000:734.621 JLINK_WriteReg(R11, 0x00000000)
T2020 000:734.625 - 0.005ms returns 0
T2020 000:734.628 JLINK_WriteReg(R12, 0x00000000)
T2020 000:734.632 - 0.004ms returns 0
T2020 000:734.636 JLINK_WriteReg(R13 (SP), 0x1FFF9000)
T2020 000:734.640 - 0.005ms returns 0
T2020 000:734.644 JLINK_WriteReg(R14, 0x1FFF8001)
T2020 000:734.647 - 0.005ms returns 0
T2020 000:734.651 JLINK_WriteReg(R15 (PC), 0x1FFF8288)
T2020 000:734.655 - 0.005ms returns 0
T2020 000:734.658 JLINK_WriteReg(XPSR, 0x01000000)
T2020 000:734.662 - 0.005ms returns 0
T2020 000:734.666 JLINK_WriteReg(MSP, 0x1FFF9000)
T2020 000:734.669 - 0.005ms returns 0
T2020 000:734.673 JLINK_WriteReg(PSP, 0x1FFF9000)
T2020 000:734.676 - 0.005ms returns 0
T2020 000:734.680 JLINK_WriteReg(CFBP, 0x00000000)
T2020 000:734.683 - 0.005ms returns 0
T2020 000:734.688 JLINK_SetBPEx(Addr = 0x1FFF8000, Type = 0xFFFFFFF2)
T2020 000:734.694 - 0.007ms returns 0x0000000A
T2020 000:734.698 JLINK_Go()
T2020 000:734.707   CPU_WriteMem(4 bytes @ 0xE0002000)
T2020 000:735.118   CPU_ReadMem(4 bytes @ 0xE0001000)
T2020 000:738.386 - 3.697ms
T2020 000:738.401 JLINK_IsHalted()
T2020 000:738.757 - 0.368ms returns FALSE
T2020 000:738.779 JLINK_HasError()
T2020 000:739.882 JLINK_IsHalted()
T2020 000:740.357 - 0.482ms returns FALSE
T2020 000:740.372 JLINK_HasError()
T2020 000:741.850 JLINK_IsHalted()
T2020 000:742.251 - 0.405ms returns FALSE
T2020 000:742.260 JLINK_HasError()
T2020 000:743.869 JLINK_IsHalted()
T2020 000:744.357 - 0.496ms returns FALSE
T2020 000:744.373 JLINK_HasError()
T2020 000:745.838 JLINK_IsHalted()
T2020 000:748.639 - 2.838ms returns TRUE
T2020 000:748.683 JLINK_ReadReg(R15 (PC))
T2020 000:748.691 - 0.010ms returns 0x1FFF8000
T2020 000:748.695 JLINK_ClrBPEx(BPHandle = 0x0000000A)
T2020 000:748.699 - 0.005ms returns 0x00
T2020 000:748.704 JLINK_ReadReg(R0)
T2020 000:748.707 - 0.005ms returns 0x00000000
T2020 000:749.036 JLINK_WriteMem(0x1FFF856C, 0x200 Bytes, ...)
T2020 000:749.043   Data:  00 D8 04 E0 40 F2 06 31 46 A0 00 F0 05 FB 00 BF ...
T2020 000:749.055   CPU_WriteMem(512 bytes @ 0x1FFF856C)
T2020 000:751.995 - 2.974ms returns 0x200
T2020 000:752.022 JLINK_HasError()
T2020 000:752.036 JLINK_WriteReg(R0, 0x00000600)
T2020 000:752.053 - 0.022ms returns 0
T2020 000:752.065 JLINK_WriteReg(R1, 0x00000200)
T2020 000:752.076 - 0.015ms returns 0
T2020 000:752.088 JLINK_WriteReg(R2, 0x1FFF856C)
T2020 000:752.098 - 0.015ms returns 0
T2020 000:752.110 JLINK_WriteReg(R3, 0x00000000)
T2020 000:752.121 - 0.016ms returns 0
T2020 000:752.133 JLINK_WriteReg(R4, 0x00000000)
T2020 000:752.143 - 0.015ms returns 0
T2020 000:752.155 JLINK_WriteReg(R5, 0x00000000)
T2020 000:752.165 - 0.015ms returns 0
T2020 000:752.177 JLINK_WriteReg(R6, 0x00000000)
T2020 000:752.187 - 0.015ms returns 0
T2020 000:752.199 JLINK_WriteReg(R7, 0x00000000)
T2020 000:752.209 - 0.015ms returns 0
T2020 000:752.221 JLINK_WriteReg(R8, 0x00000000)
T2020 000:752.231 - 0.015ms returns 0
T2020 000:752.243 JLINK_WriteReg(R9, 0x1FFF8568)
T2020 000:752.254 - 0.015ms returns 0
T2020 000:752.266 JLINK_WriteReg(R10, 0x00000000)
T2020 000:752.277 - 0.016ms returns 0
T2020 000:752.289 JLINK_WriteReg(R11, 0x00000000)
T2020 000:752.299 - 0.015ms returns 0
T2020 000:752.312 JLINK_WriteReg(R12, 0x00000000)
T2020 000:752.322 - 0.015ms returns 0
T2020 000:752.341 JLINK_WriteReg(R13 (SP), 0x1FFF9000)
T2020 000:752.358 - 0.022ms returns 0
T2020 000:752.370 JLINK_WriteReg(R14, 0x1FFF8001)
T2020 000:752.381 - 0.016ms returns 0
T2020 000:752.394 JLINK_WriteReg(R15 (PC), 0x1FFF8288)
T2020 000:752.406 - 0.017ms returns 0
T2020 000:752.418 JLINK_WriteReg(XPSR, 0x01000000)
T2020 000:752.428 - 0.015ms returns 0
T2020 000:752.441 JLINK_WriteReg(MSP, 0x1FFF9000)
T2020 000:752.451 - 0.016ms returns 0
T2020 000:752.463 JLINK_WriteReg(PSP, 0x1FFF9000)
T2020 000:752.474 - 0.015ms returns 0
T2020 000:752.486 JLINK_WriteReg(CFBP, 0x00000000)
T2020 000:752.497 - 0.015ms returns 0
T2020 000:752.509 JLINK_SetBPEx(Addr = 0x1FFF8000, Type = 0xFFFFFFF2)
T2020 000:752.523 - 0.019ms returns 0x0000000B
T2020 000:752.535 JLINK_Go()
T2020 000:752.554   CPU_WriteMem(4 bytes @ 0xE0002000)
T2020 000:753.006   CPU_ReadMem(4 bytes @ 0xE0001000)
T2020 000:756.181 - 3.704ms
T2020 000:756.376 JLINK_IsHalted()
T2020 000:756.753 - 0.389ms returns FALSE
T2020 000:756.775 JLINK_HasError()
T2020 000:761.167 JLINK_IsHalted()
T2020 000:761.564 - 0.404ms returns FALSE
T2020 000:761.577 JLINK_HasError()
T2020 000:762.810 JLINK_IsHalted()
T2020 000:763.212 - 0.407ms returns FALSE
T2020 000:763.222 JLINK_HasError()
T2020 000:764.795 JLINK_IsHalted()
T2020 000:767.513 - 2.728ms returns TRUE
T2020 000:767.531 JLINK_ReadReg(R15 (PC))
T2020 000:767.541 - 0.013ms returns 0x1FFF8000
T2020 000:767.549 JLINK_ClrBPEx(BPHandle = 0x0000000B)
T2020 000:767.556 - 0.009ms returns 0x00
T2020 000:767.563 JLINK_ReadReg(R0)
T2020 000:767.569 - 0.009ms returns 0x00000000
T2020 000:768.021 JLINK_WriteMem(0x1FFF856C, 0x200 Bytes, ...)
T2020 000:768.034   Data:  02 DB 05 2C 00 DC 04 E0 4F F4 77 71 2F A0 00 F0 ...
T2020 000:768.052   CPU_WriteMem(512 bytes @ 0x1FFF856C)
T2020 000:770.978 - 2.971ms returns 0x200
T2020 000:771.001 JLINK_HasError()
T2020 000:771.011 JLINK_WriteReg(R0, 0x00000800)
T2020 000:771.022 - 0.014ms returns 0
T2020 000:771.029 JLINK_WriteReg(R1, 0x00000200)
T2020 000:771.036 - 0.009ms returns 0
T2020 000:771.043 JLINK_WriteReg(R2, 0x1FFF856C)
T2020 000:771.049 - 0.009ms returns 0
T2020 000:771.056 JLINK_WriteReg(R3, 0x00000000)
T2020 000:771.063 - 0.009ms returns 0
T2020 000:771.070 JLINK_WriteReg(R4, 0x00000000)
T2020 000:771.076 - 0.009ms returns 0
T2020 000:771.083 JLINK_WriteReg(R5, 0x00000000)
T2020 000:771.089 - 0.009ms returns 0
T2020 000:771.096 JLINK_WriteReg(R6, 0x00000000)
T2020 000:771.102 - 0.009ms returns 0
T2020 000:771.110 JLINK_WriteReg(R7, 0x00000000)
T2020 000:771.116 - 0.009ms returns 0
T2020 000:771.123 JLINK_WriteReg(R8, 0x00000000)
T2020 000:771.129 - 0.009ms returns 0
T2020 000:771.136 JLINK_WriteReg(R9, 0x1FFF8568)
T2020 000:771.142 - 0.009ms returns 0
T2020 000:771.149 JLINK_WriteReg(R10, 0x00000000)
T2020 000:771.155 - 0.009ms returns 0
T2020 000:771.163 JLINK_WriteReg(R11, 0x00000000)
T2020 000:771.169 - 0.009ms returns 0
T2020 000:771.176 JLINK_WriteReg(R12, 0x00000000)
T2020 000:771.182 - 0.009ms returns 0
T2020 000:771.189 JLINK_WriteReg(R13 (SP), 0x1FFF9000)
T2020 000:771.196 - 0.009ms returns 0
T2020 000:771.203 JLINK_WriteReg(R14, 0x1FFF8001)
T2020 000:771.209 - 0.009ms returns 0
T2020 000:771.216 JLINK_WriteReg(R15 (PC), 0x1FFF8288)
T2020 000:771.222 - 0.009ms returns 0
T2020 000:771.230 JLINK_WriteReg(XPSR, 0x01000000)
T2020 000:771.236 - 0.009ms returns 0
T2020 000:771.243 JLINK_WriteReg(MSP, 0x1FFF9000)
T2020 000:771.249 - 0.009ms returns 0
T2020 000:771.256 JLINK_WriteReg(PSP, 0x1FFF9000)
T2020 000:771.262 - 0.009ms returns 0
T2020 000:771.270 JLINK_WriteReg(CFBP, 0x00000000)
T2020 000:771.276 - 0.009ms returns 0
T2020 000:771.283 JLINK_SetBPEx(Addr = 0x1FFF8000, Type = 0xFFFFFFF2)
T2020 000:771.291 - 0.011ms returns 0x0000000C
T2020 000:771.299 JLINK_Go()
T2020 000:771.309   CPU_WriteMem(4 bytes @ 0xE0002000)
T2020 000:771.743   CPU_ReadMem(4 bytes @ 0xE0001000)
T2020 000:774.833 - 3.543ms
T2020 000:774.849 JLINK_IsHalted()
T2020 000:775.211 - 0.367ms returns FALSE
T2020 000:775.222 JLINK_HasError()
T2020 000:777.802 JLINK_IsHalted()
T2020 000:778.166 - 0.368ms returns FALSE
T2020 000:778.175 JLINK_HasError()
T2020 000:779.774 JLINK_IsHalted()
T2020 000:780.147 - 0.379ms returns FALSE
T2020 000:780.158 JLINK_HasError()
T2020 000:784.752 JLINK_IsHalted()
T2020 000:787.513 - 2.779ms returns TRUE
T2020 000:787.542 JLINK_ReadReg(R15 (PC))
T2020 000:787.553 - 0.014ms returns 0x1FFF8000
T2020 000:787.562 JLINK_ClrBPEx(BPHandle = 0x0000000C)
T2020 000:787.570 - 0.010ms returns 0x00
T2020 000:787.578 JLINK_ReadReg(R0)
T2020 000:787.585 - 0.009ms returns 0x00000000
T2020 000:790.919 JLINK_WriteMem(0x1FFF856C, 0x200 Bytes, ...)
T2020 000:790.940   Data:  01 60 40 EA 01 70 23 49 26 39 08 62 23 48 00 88 ...
T2020 000:790.960   CPU_WriteMem(512 bytes @ 0x1FFF856C)
T2020 000:793.996 - 3.084ms returns 0x200
T2020 000:794.011 JLINK_HasError()
T2020 000:794.017 JLINK_WriteReg(R0, 0x00000A00)
T2020 000:794.024 - 0.009ms returns 0
T2020 000:794.029 JLINK_WriteReg(R1, 0x00000200)
T2020 000:794.032 - 0.005ms returns 0
T2020 000:794.036 JLINK_WriteReg(R2, 0x1FFF856C)
T2020 000:794.039 - 0.005ms returns 0
T2020 000:794.043 JLINK_WriteReg(R3, 0x00000000)
T2020 000:794.047 - 0.005ms returns 0
T2020 000:794.062 JLINK_WriteReg(R4, 0x00000000)
T2020 000:794.065 - 0.005ms returns 0
T2020 000:794.069 JLINK_WriteReg(R5, 0x00000000)
T2020 000:794.072 - 0.005ms returns 0
T2020 000:794.076 JLINK_WriteReg(R6, 0x00000000)
T2020 000:794.080 - 0.005ms returns 0
T2020 000:794.083 JLINK_WriteReg(R7, 0x00000000)
T2020 000:794.087 - 0.005ms returns 0
T2020 000:794.091 JLINK_WriteReg(R8, 0x00000000)
T2020 000:794.094 - 0.005ms returns 0
T2020 000:794.098 JLINK_WriteReg(R9, 0x1FFF8568)
T2020 000:794.102 - 0.005ms returns 0
T2020 000:794.105 JLINK_WriteReg(R10, 0x00000000)
T2020 000:794.109 - 0.005ms returns 0
T2020 000:794.113 JLINK_WriteReg(R11, 0x00000000)
T2020 000:794.116 - 0.005ms returns 0
T2020 000:794.120 JLINK_WriteReg(R12, 0x00000000)
T2020 000:794.123 - 0.004ms returns 0
T2020 000:794.127 JLINK_WriteReg(R13 (SP), 0x1FFF9000)
T2020 000:794.131 - 0.005ms returns 0
T2020 000:794.135 JLINK_WriteReg(R14, 0x1FFF8001)
T2020 000:794.138 - 0.004ms returns 0
T2020 000:794.142 JLINK_WriteReg(R15 (PC), 0x1FFF8288)
T2020 000:794.146 - 0.005ms returns 0
T2020 000:794.150 JLINK_WriteReg(XPSR, 0x01000000)
T2020 000:794.153 - 0.005ms returns 0
T2020 000:794.157 JLINK_WriteReg(MSP, 0x1FFF9000)
T2020 000:794.160 - 0.005ms returns 0
T2020 000:794.164 JLINK_WriteReg(PSP, 0x1FFF9000)
T2020 000:794.167 - 0.005ms returns 0
T2020 000:794.171 JLINK_WriteReg(CFBP, 0x00000000)
T2020 000:794.174 - 0.004ms returns 0
T2020 000:794.178 JLINK_SetBPEx(Addr = 0x1FFF8000, Type = 0xFFFFFFF2)
T2020 000:794.183 - 0.006ms returns 0x0000000D
T2020 000:794.187 JLINK_Go()
T2020 000:794.194   CPU_WriteMem(4 bytes @ 0xE0002000)
T2020 000:794.612   CPU_ReadMem(4 bytes @ 0xE0001000)
T2020 000:797.736 - 3.560ms
T2020 000:797.753 JLINK_IsHalted()
T2020 000:798.077 - 0.336ms returns FALSE
T2020 000:798.097 JLINK_HasError()
T2020 000:806.658 JLINK_IsHalted()
T2020 000:809.458 - 2.808ms returns TRUE
T2020 000:809.473 JLINK_ReadReg(R15 (PC))
T2020 000:809.480 - 0.008ms returns 0x1FFF8000
T2020 000:809.484 JLINK_ClrBPEx(BPHandle = 0x0000000D)
T2020 000:809.489 - 0.006ms returns 0x00
T2020 000:809.493 JLINK_ReadReg(R0)
T2020 000:809.497 - 0.005ms returns 0x00000000
T2020 000:810.072 JLINK_WriteMem(0x1FFF856C, 0x200 Bytes, ...)
T2020 000:810.082   Data:  FE 72 11 40 41 F4 25 41 02 4A A2 F8 FE 13 70 47 ...
T2020 000:810.095   CPU_WriteMem(512 bytes @ 0x1FFF856C)
T2020 000:813.151 - 3.088ms returns 0x200
T2020 000:813.166 JLINK_HasError()
T2020 000:813.172 JLINK_WriteReg(R0, 0x00000C00)
T2020 000:813.180 - 0.010ms returns 0
T2020 000:813.184 JLINK_WriteReg(R1, 0x00000200)
T2020 000:813.188 - 0.005ms returns 0
T2020 000:813.192 JLINK_WriteReg(R2, 0x1FFF856C)
T2020 000:813.196 - 0.005ms returns 0
T2020 000:813.199 JLINK_WriteReg(R3, 0x00000000)
T2020 000:813.203 - 0.005ms returns 0
T2020 000:813.207 JLINK_WriteReg(R4, 0x00000000)
T2020 000:813.214 - 0.009ms returns 0
T2020 000:813.218 JLINK_WriteReg(R5, 0x00000000)
T2020 000:813.221 - 0.005ms returns 0
T2020 000:813.225 JLINK_WriteReg(R6, 0x00000000)
T2020 000:813.228 - 0.004ms returns 0
T2020 000:813.232 JLINK_WriteReg(R7, 0x00000000)
T2020 000:813.235 - 0.005ms returns 0
T2020 000:813.239 JLINK_WriteReg(R8, 0x00000000)
T2020 000:813.242 - 0.004ms returns 0
T2020 000:813.246 JLINK_WriteReg(R9, 0x1FFF8568)
T2020 000:813.249 - 0.004ms returns 0
T2020 000:813.253 JLINK_WriteReg(R10, 0x00000000)
T2020 000:813.257 - 0.005ms returns 0
T2020 000:813.260 JLINK_WriteReg(R11, 0x00000000)
T2020 000:813.264 - 0.005ms returns 0
T2020 000:813.267 JLINK_WriteReg(R12, 0x00000000)
T2020 000:813.271 - 0.005ms returns 0
T2020 000:813.275 JLINK_WriteReg(R13 (SP), 0x1FFF9000)
T2020 000:813.279 - 0.005ms returns 0
T2020 000:813.282 JLINK_WriteReg(R14, 0x1FFF8001)
T2020 000:813.286 - 0.005ms returns 0
T2020 000:813.290 JLINK_WriteReg(R15 (PC), 0x1FFF8288)
T2020 000:813.293 - 0.005ms returns 0
T2020 000:813.297 JLINK_WriteReg(XPSR, 0x01000000)
T2020 000:813.300 - 0.005ms returns 0
T2020 000:813.304 JLINK_WriteReg(MSP, 0x1FFF9000)
T2020 000:813.307 - 0.004ms returns 0
T2020 000:813.311 JLINK_WriteReg(PSP, 0x1FFF9000)
T2020 000:813.315 - 0.005ms returns 0
T2020 000:813.318 JLINK_WriteReg(CFBP, 0x00000000)
T2020 000:813.322 - 0.004ms returns 0
T2020 000:813.326 JLINK_SetBPEx(Addr = 0x1FFF8000, Type = 0xFFFFFFF2)
T2020 000:813.331 - 0.006ms returns 0x0000000E
T2020 000:813.335 JLINK_Go()
T2020 000:813.342   CPU_WriteMem(4 bytes @ 0xE0002000)
T2020 000:813.690   CPU_ReadMem(4 bytes @ 0xE0001000)
T2020 000:816.757 - 3.425ms
T2020 000:816.765 JLINK_IsHalted()
T2020 000:817.161 - 0.412ms returns FALSE
T2020 000:817.183 JLINK_HasError()
T2020 000:820.404 JLINK_IsHalted()
T2020 000:820.790 - 0.388ms returns FALSE
